Circuit: * C:\Users\mitchgu\Documents\6.301\FP\ptatis.asc

Direct Newton iteration failed to find .op point.  (Use ".option noopiter" to skip.)
Starting Gmin stepping
Gmin = 10
Gmin = 1.07374
Gmin = 0.115292
Gmin = 0.0123794
Gmin = 0.00132923
Gmin = 0.000142725
Gmin = 1.5325e-005
Gmin = 1.6455e-006
Gmin = 1.76685e-007
Gmin = 1.89714e-008
Gmin = 2.03704e-009
Gmin = 2.18725e-010
Gmin = 2.34854e-011
Gmin = 2.52173e-012
Gmin = 2.70769e-013
Gmin = 0
Gmin stepping succeeded in finding the operating point.

Semiconductor Device Operating Points:
                        --- Bipolar Transistors ---
Name:       q7          q3          q5          q4          q8
Model:      npn         npn         npn         npn         pnp
Ib:       4.68e-07    4.68e-07    2.64e-06    2.64e-06   -9.00e-07
Ic:       4.68e-05    4.68e-05    2.64e-04    2.64e-04   -9.00e-05
Vbe:      5.80e-01    5.80e-01    6.24e-01    6.24e-01   -5.97e-01
Vbc:     -2.08e+00   -2.08e+00   -3.76e-01    0.00e+00    2.08e+00
Vce:      2.66e+00    2.66e+00    1.00e+00    6.24e-01   -2.68e+00
BetaDC:   1.00e+02    1.00e+02    1.00e+02    1.00e+02    1.00e+02
Gm:       1.82e-03    1.82e-03    1.03e-02    1.03e-02    3.50e-03
Rpi:      5.49e+04    5.49e+04    9.74e+03    9.74e+03    2.85e+04
Rx:       0.00e+00    0.00e+00    0.00e+00    0.00e+00    0.00e+00
Ro:       4.81e+47    4.81e+47    7.80e+18    3.50e+12    4.81e+47
Cbe:      0.00e+00    0.00e+00    0.00e+00    0.00e+00    0.00e+00
Cbc:      0.00e+00    0.00e+00    0.00e+00    0.00e+00    0.00e+00
Cjs:      0.00e+00    0.00e+00    0.00e+00    0.00e+00    0.00e+00
BetaAC:   1.00e+02    1.00e+02    1.00e+02    1.00e+02    1.00e+02
Cbx:      0.00e+00    0.00e+00    0.00e+00    0.00e+00    0.00e+00
Ft:       0.00e+00    0.00e+00    0.00e+00    0.00e+00    0.00e+00

Name:       q6          q1          q2
Model:      pnp         pnp         pnp
Ib:      -9.00e-07   -9.00e-07   -9.00e-07
Ic:      -9.00e-05   -9.00e-05   -9.00e-05
Vbe:     -5.97e-01   -5.97e-01   -5.97e-01
Vbc:      2.08e+00    0.00e+00    2.08e+00
Vce:     -2.68e+00   -5.97e-01   -2.68e+00
BetaDC:   1.00e+02    1.00e+02    1.00e+02
Gm:       3.50e-03    3.50e-03    3.50e-03
Rpi:      2.85e+04    2.85e+04    2.85e+04
Rx:       0.00e+00    0.00e+00    0.00e+00
Ro:       4.81e+47    3.50e+12    4.81e+47
Cbe:      0.00e+00    0.00e+00    0.00e+00
Cbc:      0.00e+00    0.00e+00    0.00e+00
Cjs:      0.00e+00    0.00e+00    0.00e+00
BetaAC:   1.00e+02    1.00e+02    1.00e+02
Cbx:      0.00e+00    0.00e+00    0.00e+00
Ft:       0.00e+00    0.00e+00    0.00e+00



Date: Tue Dec 13 03:56:15 2016
Total elapsed time: 0.210 seconds.

tnom = 27
temp = 100
method = trap
totiter = 46
traniter = 0
tranpoints = 0
accept = 0
rejected = 0
matrix size = 8
fillins = 1
solver = Normal
Matrix Compiler1: 416 bytes object code size
Matrix Compiler2:      49 opcodes

